
**** 09/23/15 10:14:01 ***** PSpice 16.6.0 (October 2012) ***** ID# 0 ********

 ** Profile: "Control-Temp"  [ C:\Documents and Settings\EGA\Escritorio\convertidor ac-dc-pspicefiles\control\temp.sim ] 


 ****     CIRCUIT DESCRIPTION


******************************************************************************




** Creating circuit file "Temp.cir" 
** WARNING: THIS AUTOMATICALLY GENERATED FILE MAY BE OVERWRITTEN BY SUBSEQUENT SIMULATIONS

*Libraries: 
* Profile Libraries :
* Local Libraries :
.LIB "E:/Hardware/OrCAD/Capture/PSpice/burr_brn.lib" 
* From [PSPICE NETLIST] section of E:\zOrCAD\cdssetup\OrCAD_PSpice/16.6.0/PSpice.ini file:
.lib "nom.lib" 

*Analysis directives: 
.TRAN  0 80ms 0 .2ms 
.OPTIONS ADVCONV
.PROBE64 V(alias(*)) I(alias(*)) W(alias(*)) D(alias(*)) NOISE(alias(*)) 
.INC "..\Control.net" 



**** INCLUDING Control.net ****
* source CONVERTIDOR AC-DC
X_U17         E_SQR 0 /VALFA_N 0 -VCC_CON -50MV N16288 +VCC_CON AD633/AD
R_R31         VALFA N15996  15k  
R_R32         N15996 N16288  3.0k  
X_U16         0 N15996 +VCC_CON -VCC_CON /VALFA_N OPA350
X_U13         0 VALFA VALFA 0 -VCC_CON 0 VALFA_SQR +VCC_CON AD633/AD
X_U15         0 VBETA VBETA 0 -VCC_CON 0 VBETA_SQR +VCC_CON AD633/AD
X_U14         0 N14775 +VCC_CON -VCC_CON E_SQR OPA350
R_R74         N14775 E_SQR  10k  
R_R75         VALFA_SQR N14775  10k  
R_R76         VBETA_SQR N14775  10k  
R_R36         VBETA N17409  15k  
R_R37         N17409 N17437  3.0k  
X_U18         0 N17409 +VCC_CON -VCC_CON /VBETA_N OPA350
X_U19         E_SQR 0 /VBETA_N 0 -VCC_CON 0 N17437 +VCC_CON AD633/AD
X_U21         0 /VBETA_N N18560 0 -VCC_CON 0 IBETA_REF +VCC_CON AD633/AD
X_U20         0 /VALFA_N N18560 0 -VCC_CON 0 IALFA_REF +VCC_CON AD633/AD
R_R1         VEA N18560  10k  
R_R2         N18560 0  20k  
V_Valfa         VALFA 0  
+SIN 0 4.72Vp 50Hz 0 0 0
V_Vbeta         VBETA 0  
+SIN 0 4.72Vp 50Hz 0 0 -90
V_V5         0 -VCC_CON 15V
V_V4         +VCC_CON 0 15V
R_R1003         0 IBETA_REF  1MEG  
R_R1002         0 IALFA_REF  1MEG  
V_V7         VEA 0  
+PULSE -10V +10V 20ms 20ms 20ms 20ms 80ms
R_R1004         -50MV -VCC_CON  299k  
R_R1005         0 -50MV  1k  

**** RESUMING Temp.cir ****
.END

**** 09/23/15 10:14:01 ***** PSpice 16.6.0 (October 2012) ***** ID# 0 ********

 ** Profile: "Control-Temp"  [ C:\Documents and Settings\EGA\Escritorio\convertidor ac-dc-pspicefiles\control\temp.sim ] 


 ****     Diode MODEL PARAMETERS


******************************************************************************




               X_U17.DX        X_U16.dx        X_U13.DX        X_U15.DX        
          IS    1.000000E-15   10.000000E-15    1.000000E-15    1.000000E-15 
          RS                    1                                            
         CJO                  100.000000E-15                                 


               X_U14.dx        X_U18.dx        X_U19.DX        X_U21.DX        
          IS   10.000000E-15   10.000000E-15    1.000000E-15    1.000000E-15 
          RS    1               1                                            
         CJO  100.000000E-15  100.000000E-15                                 


               X_U20.DX        
          IS    1.000000E-15 


**** 09/23/15 10:14:01 ***** PSpice 16.6.0 (October 2012) ***** ID# 0 ********

 ** Profile: "Control-Temp"  [ C:\Documents and Settings\EGA\Escritorio\convertidor ac-dc-pspicefiles\control\temp.sim ] 


 ****     BJT MODEL PARAMETERS


******************************************************************************




               X_U17.QX        X_U13.QX        X_U15.QX        X_U19.QX        
               NPN             NPN             NPN             NPN             
       LEVEL    1               1               1               1            
          IS  100.000000E-18  100.000000E-18  100.000000E-18  100.000000E-18 
          BF   10.000000E+03   10.000000E+03   10.000000E+03   10.000000E+03 
          NF    1               1               1               1            
          BR    1               1               1               1            
          NR    1               1               1               1            
         ISS    0               0               0               0            
          RE    0               0               0               0            
          RC    0               0               0               0            
         CJE    0               0               0               0            
         VJE     .75             .75             .75             .75         
         CJC    0               0               0               0            
         VJC     .75             .75             .75             .75         
         MJC     .33             .33             .33             .33         
        XCJC    1               1               1               1            
         CJS    0               0               0               0            
         VJS     .75             .75             .75             .75         
          KF    0               0               0               0            
          AF    1               1               1               1            
          CN    2.42            2.42            2.42            2.42         
           D     .87             .87             .87             .87         


               X_U21.QX        X_U20.QX        
               NPN             NPN             
       LEVEL    1               1            
          IS  100.000000E-18  100.000000E-18 
          BF   10.000000E+03   10.000000E+03 
          NF    1               1            
          BR    1               1            
          NR    1               1            
         ISS    0               0            
          RE    0               0            
          RC    0               0            
         CJE    0               0            
         VJE     .75             .75         
         CJC    0               0            
         VJC     .75             .75         
         MJC     .33             .33         
        XCJC    1               1            
         CJS    0               0            
         VJS     .75             .75         
          KF    0               0            
          AF    1               1            
          CN    2.42            2.42         
           D     .87             .87         


**** 09/23/15 10:14:01 ***** PSpice 16.6.0 (October 2012) ***** ID# 0 ********

 ** Profile: "Control-Temp"  [ C:\Documents and Settings\EGA\Escritorio\convertidor ac-dc-pspicefiles\control\temp.sim ] 


 ****     MOSFET MODEL PARAMETERS


******************************************************************************




               X_U16.nix       X_U16.nox       X_U16.pix       X_U16.pox       
               NMOS            NMOS            PMOS            PMOS            
       LEVEL    1               1               1               1            
           L  100.000000E-06  100.000000E-06  100.000000E-06  100.000000E-06 
           W  100.000000E-06  100.000000E-06  100.000000E-06  100.000000E-06 
         VTO     .75             .75            -.75            -.75         
          KP  205.500000E-06  195.000000E-06  205.500000E-06  195.000000E-06 
       GAMMA    0               0               0               0            
         PHI     .6              .6              .6              .6          
      LAMBDA    0               0               0               0            
          RD    1                .5             1                .5          
          RS    1                .5             1                .5          
          RG    1               1               1               1            
          RB    1               1               1               1            
          IS   10.000000E-15   10.000000E-15   10.000000E-15   10.000000E-15 
          JS    0               0               0               0            
          PB     .8              .8              .8              .8          
        PBSW     .8              .8              .8              .8          
         CBD  234.000000E-15  234.000000E-15  234.000000E-15  234.000000E-15 
         CBS  234.000000E-15  234.000000E-15  234.000000E-15  234.000000E-15 
          CJ    0               0               0               0            
        CJSW    0               0               0               0            
        CGSO    4.000000E-09   66.667000E-12    4.000000E-09   66.667000E-12 
        CGDO    4.000000E-09   66.667000E-12    4.000000E-09   66.667000E-12 
        CGBO   16.667000E-09  125.000000E-09   16.667000E-09  125.000000E-09 
         TOX    0               0               0               0            
          XJ    0               0               0               0            
       UCRIT   10.000000E+03   10.000000E+03   10.000000E+03   10.000000E+03 
      DIOMOD    1               1               1               1            
         VFB    0               0               0               0            
        LETA    0               0               0               0            
        WETA    0               0               0               0            
          U0    0               0               0               0            
        TEMP    0               0               0               0            
         VDD    5               5               5               5            
       XPART    0               0               0               0            


               X_U14.nix       X_U14.nox       X_U14.pix       X_U14.pox       
               NMOS            NMOS            PMOS            PMOS            
       LEVEL    1               1               1               1            
           L  100.000000E-06  100.000000E-06  100.000000E-06  100.000000E-06 
           W  100.000000E-06  100.000000E-06  100.000000E-06  100.000000E-06 
         VTO     .75             .75            -.75            -.75         
          KP  205.500000E-06  195.000000E-06  205.500000E-06  195.000000E-06 
       GAMMA    0               0               0               0            
         PHI     .6              .6              .6              .6          
      LAMBDA    0               0               0               0            
          RD    1                .5             1                .5          
          RS    1                .5             1                .5          
          RG    1               1               1               1            
          RB    1               1               1               1            
          IS   10.000000E-15   10.000000E-15   10.000000E-15   10.000000E-15 
          JS    0               0               0               0            
          PB     .8              .8              .8              .8          
        PBSW     .8              .8              .8              .8          
         CBD  234.000000E-15  234.000000E-15  234.000000E-15  234.000000E-15 
         CBS  234.000000E-15  234.000000E-15  234.000000E-15  234.000000E-15 
          CJ    0               0               0               0            
        CJSW    0               0               0               0            
        CGSO    4.000000E-09   66.667000E-12    4.000000E-09   66.667000E-12 
        CGDO    4.000000E-09   66.667000E-12    4.000000E-09   66.667000E-12 
        CGBO   16.667000E-09  125.000000E-09   16.667000E-09  125.000000E-09 
         TOX    0               0               0               0            
          XJ    0               0               0               0            
       UCRIT   10.000000E+03   10.000000E+03   10.000000E+03   10.000000E+03 
      DIOMOD    1               1               1               1            
         VFB    0               0               0               0            
        LETA    0               0               0               0            
        WETA    0               0               0               0            
          U0    0               0               0               0            
        TEMP    0               0               0               0            
         VDD    5               5               5               5            
       XPART    0               0               0               0            


               X_U18.nix       X_U18.nox       X_U18.pix       X_U18.pox       
               NMOS            NMOS            PMOS            PMOS            
       LEVEL    1               1               1               1            
           L  100.000000E-06  100.000000E-06  100.000000E-06  100.000000E-06 
           W  100.000000E-06  100.000000E-06  100.000000E-06  100.000000E-06 
         VTO     .75             .75            -.75            -.75         
          KP  205.500000E-06  195.000000E-06  205.500000E-06  195.000000E-06 
       GAMMA    0               0               0               0            
         PHI     .6              .6              .6              .6          
      LAMBDA    0               0               0               0            
          RD    1                .5             1                .5          
          RS    1                .5             1                .5          
          RG    1               1               1               1            
          RB    1               1               1               1            
          IS   10.000000E-15   10.000000E-15   10.000000E-15   10.000000E-15 
          JS    0               0               0               0            
          PB     .8              .8              .8              .8          
        PBSW     .8              .8              .8              .8          
         CBD  234.000000E-15  234.000000E-15  234.000000E-15  234.000000E-15 
         CBS  234.000000E-15  234.000000E-15  234.000000E-15  234.000000E-15 
          CJ    0               0               0               0            
        CJSW    0               0               0               0            
        CGSO    4.000000E-09   66.667000E-12    4.000000E-09   66.667000E-12 
        CGDO    4.000000E-09   66.667000E-12    4.000000E-09   66.667000E-12 
        CGBO   16.667000E-09  125.000000E-09   16.667000E-09  125.000000E-09 
         TOX    0               0               0               0            
          XJ    0               0               0               0            
       UCRIT   10.000000E+03   10.000000E+03   10.000000E+03   10.000000E+03 
      DIOMOD    1               1               1               1            
         VFB    0               0               0               0            
        LETA    0               0               0               0            
        WETA    0               0               0               0            
          U0    0               0               0               0            
        TEMP    0               0               0               0            
         VDD    5               5               5               5            
       XPART    0               0               0               0            


**** 09/23/15 10:14:01 ***** PSpice 16.6.0 (October 2012) ***** ID# 0 ********

 ** Profile: "Control-Temp"  [ C:\Documents and Settings\EGA\Escritorio\convertidor ac-dc-pspicefiles\control\temp.sim ] 


 ****     INITIAL TRANSIENT SOLUTION       TEMPERATURE =   27.000 DEG C


******************************************************************************



 NODE   VOLTAGE     NODE   VOLTAGE     NODE   VOLTAGE     NODE   VOLTAGE


(  VEA)  -10.0000  (-50MV)    -.0508  (E_SQR)    2.2171  (VALFA)    0.0000      

(VBETA)   -4.7200  (N14775)-206.4E-09 (N15996)-438.9E-12 (N16288) 973.4E-12     

(N17409)-1.171E-09 (N17437)     .9440 (N18560)   -6.6684 (X_U14.4)   17.0000    

(X_U14.5)     .8595                   (X_U14.7)    0.0000                       

(X_U14.8)  -16.0330                   (X_U14.9)  -16.0330                       

(X_U16.4)   17.0000                   (X_U16.5)     .8595                       

(X_U16.7)    0.0000                   (X_U16.8)  -16.0330                       

(X_U16.9)  -16.0330                   (X_U18.4)   17.0000                       

(X_U18.5)     .8595                   (X_U18.7)    0.0000                       

(X_U18.8)  -16.0330                   (X_U18.9)  -16.0330                       

(+VCC_CON)   15.0000                  (-VCC_CON)  -15.0000                      

(/VALFA_N)     .2011                  (/VBETA_N)    4.2221                      

(X_U13.10)     .0050                  (X_U13.11)     .0025                      

(X_U13.12)     .0050                  (X_U13.13)   11.9500                      

(X_U13.14)  -11.9500                  (X_U13.15)     .0250                      

(X_U13.16) 25.00E-09                  (X_U13.20)     .0050                      

(X_U13.21)     .0025                  (X_U13.22)     .0050                      

(X_U13.23)   11.9500                  (X_U13.24)  -11.9500                      

(X_U13.25)     .0250                  (X_U13.26) 25.00E-09                      

(X_U13.32) 14.82E-06                  (X_U13.33)   11.9500                      

(X_U13.34)  -11.9500                  (X_U13.40)    -.0050                      

(X_U13.54)   -2.2624                  (X_U13.55)   13.4090                      

(X_U13.56)   13.4090                  (X_U13.59) 16.41E-06                      

(X_U13.60)    -.6967                  (X_U13.61)    -.6967                      

(X_U13.62)     .0050                  (X_U13.63)   10.6600                      

(X_U13.64)  -10.6600                  (X_U13.65) 5047.0000                      

(X_U13.66)     .0050                  (X_U13.67) 5047.0000                      

(X_U13.68)    0.0000                  (X_U13.69)     .0050                      

(X_U13.70)     .7000                  (X_U13.71)    -.6900                      

(X_U13.72)     .0050                  (X_U13.73)    -.5258                      

(X_U13.74)    0.0000                  (X_U13.75)    0.0000                      

(X_U14.21)    -.0012                  (X_U14.22)   13.6300                      

(X_U14.23)  -13.6300                  (X_U14.24)-103.2E-09                      

(X_U14.25)-1.022E-09                  (X_U14.2a)-206.4E-09                      

(X_U14.33)   17.0000                  (X_U14.38)  -14.2120                      

(X_U14.39)   14.2100                  (X_U14.4x)   15.0000                      

(X_U14.66)    -.7502                  (X_U14.6c)    2.2171                      

(X_U14.6h)    2.2411                  (X_U14.6l)    2.1931                      

(X_U14.7a)    0.0000                  (X_U14.8x)  -14.0330                      

(X_U14.98)    0.0000                  (X_U14.9x)  -14.0330                      

(X_U15.10)     .0050                  (X_U15.11)   -2.3575                      

(X_U15.12)    4.7250                  (X_U15.13)   11.9500                      

(X_U15.14)  -11.9500                  (X_U15.15)  -23.5750                      

(X_U15.16)-23.58E-06                  (X_U15.20)   -4.7150                      

(X_U15.21)   -2.3575                  (X_U15.22)   -4.7150                      

(X_U15.23)   11.9500                  (X_U15.24)  -11.9500                      

(X_U15.25)  -23.5750                  (X_U15.26)-23.58E-06                      

(X_U15.32)   -2.2271                  (X_U15.33)   11.9500                      

(X_U15.34)  -11.9500                  (X_U15.40)   -2.2328                      

(X_U15.54)   -4.4898                  (X_U15.55)   13.4080                      

(X_U15.56)   13.4090                  (X_U15.59)   -2.2278                      

(X_U15.60)   -2.9238                  (X_U15.61)   -2.9245                      

(X_U15.62)   -2.2326                  (X_U15.63)   10.6600                      

